               * d:\circuit_design\fossee\astablemv\astablemv.cir
               Transient Analysis  Wed Mar 10 21:41:53  2021
--------------------------------------------------------------------------------
Index   time            in              led1            led2            
--------------------------------------------------------------------------------
0	0.000000e+00	9.000000e+00	5.465507e-02	5.465507e-02	
1	1.000000e-04	9.000000e+00	5.465507e-02	5.465507e-02	
2	2.000000e-04	9.000000e+00	5.465507e-02	5.465507e-02	
3	4.000000e-04	9.000000e+00	5.465507e-02	5.465507e-02	
4	8.000000e-04	9.000000e+00	5.465507e-02	5.465507e-02	
5	1.600000e-03	9.000000e+00	5.465507e-02	5.465507e-02	
6	3.200000e-03	9.000000e+00	5.465507e-02	5.465507e-02	
7	6.400000e-03	9.000000e+00	5.465507e-02	5.465507e-02	
8	1.280000e-02	9.000000e+00	5.465507e-02	5.465507e-02	
9	2.280000e-02	9.000000e+00	5.465507e-02	5.465507e-02	
10	3.280000e-02	9.000000e+00	5.465507e-02	5.465507e-02	
11	4.280000e-02	9.000000e+00	5.465507e-02	5.465507e-02	
12	5.280000e-02	9.000000e+00	5.465503e-02	5.465511e-02	
13	6.280000e-02	9.000000e+00	5.465552e-02	5.465462e-02	
14	7.280000e-02	9.000000e+00	5.464935e-02	5.466079e-02	
15	8.280000e-02	9.000000e+00	5.472769e-02	5.458240e-02	
16	9.280000e-02	9.000000e+00	5.372906e-02	5.557352e-02	
17	1.028000e-01	9.000000e+00	7.134597e-02	4.283451e-02	
18	1.117373e-01	9.000000e+00	9.650019e-03	1.025330e+00	
19	1.192319e-01	9.000000e+00	1.141469e+00	1.001920e-02	
20	1.251571e-01	9.000000e+00	2.564246e+00	9.697323e-03	
21	1.307618e-01	9.000000e+00	3.600550e+00	9.766838e-03	
22	1.366490e-01	9.000000e+00	4.441743e+00	1.014156e-02	
23	1.466490e-01	9.000000e+00	5.456643e+00	1.160045e-02	
24	1.566490e-01	9.000000e+00	6.103846e+00	1.391377e-02	
25	1.666490e-01	9.000000e+00	6.518791e+00	1.725207e-02	
26	1.766490e-01	9.000000e+00	6.787732e+00	2.111804e-02	
27	1.866490e-01	9.000000e+00	6.963645e+00	2.585523e-02	
28	1.966490e-01	9.000000e+00	7.081393e+00	3.006389e-02	
29	2.066490e-01	9.000000e+00	7.161108e+00	3.499727e-02	
30	2.166490e-01	9.000000e+00	7.217266e+00	3.810761e-02	
31	2.266490e-01	9.000000e+00	7.256992e+00	4.223525e-02	
32	2.366490e-01	9.000000e+00	7.286930e+00	4.372726e-02	
33	2.466490e-01	9.000000e+00	7.309079e+00	4.699744e-02	
34	2.566490e-01	9.000000e+00	7.327038e+00	4.716908e-02	
35	2.666490e-01	9.000000e+00	7.340793e+00	4.986417e-02	
36	2.766490e-01	9.000000e+00	7.352752e+00	4.921996e-02	
37	2.866490e-01	9.000000e+00	7.362092e+00	5.160353e-02	
38	2.966490e-01	9.000000e+00	7.370741e+00	5.047904e-02	
39	3.066490e-01	9.000000e+00	7.377532e+00	5.270253e-02	
40	3.166490e-01	9.000000e+00	7.384187e+00	5.129101e-02	
41	3.266490e-01	9.000000e+00	7.389381e+00	5.343422e-02	
42	3.366490e-01	9.000000e+00	7.394716e+00	5.186106e-02	
43	3.466490e-01	9.000000e+00	7.398567e+00	5.416680e-02	
44	3.566490e-01	9.000000e+00	7.400476e+00	5.423757e-02	
45	3.666490e-01	9.000000e+00	1.000549e-02	1.561414e+00	
46	3.710674e-01	9.000000e+00	9.828953e-03	2.579122e+00	
47	3.764887e-01	9.000000e+00	9.878856e-03	3.582065e+00	
48	3.816022e-01	9.000000e+00	1.021043e-02	4.327749e+00	
49	3.916022e-01	9.000000e+00	1.156420e-02	5.384260e+00	
50	4.016022e-01	9.000000e+00	1.389393e-02	6.057439e+00	
51	4.116022e-01	9.000000e+00	1.703996e-02	6.489128e+00	
52	4.216022e-01	9.000000e+00	2.110604e-02	6.768135e+00	
53	4.316022e-01	9.000000e+00	2.543941e-02	6.951104e+00	
54	4.416022e-01	9.000000e+00	3.032997e-02	7.072574e+00	

Index   time            in              led1            led2            
--------------------------------------------------------------------------------
55	4.516022e-01	9.000000e+00	3.438958e-02	7.155448e+00	
56	4.616022e-01	9.000000e+00	3.879465e-02	7.212826e+00	
57	4.716022e-01	9.000000e+00	4.148061e-02	7.254246e+00	
58	4.816022e-01	9.000000e+00	4.482483e-02	7.284374e+00	
59	4.916022e-01	9.000000e+00	4.608330e-02	7.307628e+00	
60	5.016022e-01	9.000000e+00	4.854304e-02	7.325355e+00	
61	5.116022e-01	9.000000e+00	4.884135e-02	7.339970e+00	
62	5.216022e-01	9.000000e+00	5.082530e-02	7.351515e+00	
63	5.316022e-01	9.000000e+00	5.050053e-02	7.361609e+00	
64	5.416022e-01	9.000000e+00	5.220753e-02	7.369756e+00	
65	5.516022e-01	9.000000e+00	5.154042e-02	7.377248e+00	
66	5.616022e-01	9.000000e+00	5.309818e-02	7.383357e+00	
67	5.716022e-01	9.000000e+00	5.222538e-02	7.389226e+00	
68	5.816022e-01	9.000000e+00	5.370031e-02	7.394017e+00	
69	5.916022e-01	9.000000e+00	5.269801e-02	7.398805e+00	
70	6.016022e-01	9.000000e+00	5.412514e-02	7.402693e+00	
71	6.116022e-01	9.000000e+00	5.303740e-02	7.406720e+00	
72	6.216022e-01	9.000000e+00	5.443588e-02	7.409959e+00	
73	6.316022e-01	9.000000e+00	5.328932e-02	7.413428e+00	
74	6.416022e-01	9.000000e+00	5.467006e-02	7.416182e+00	
75	6.516022e-01	9.000000e+00	5.348152e-02	7.419227e+00	
76	6.616022e-01	9.000000e+00	5.485094e-02	7.421607e+00	
77	6.716022e-01	9.000000e+00	5.363149e-02	7.424321e+00	
78	6.816022e-01	9.000000e+00	5.499353e-02	7.426405e+00	
79	6.916022e-01	9.000000e+00	5.375072e-02	7.428854e+00	
80	7.016022e-01	9.000000e+00	5.510784e-02	7.430699e+00	
81	7.116022e-01	9.000000e+00	5.384700e-02	7.432932e+00	
82	7.216022e-01	9.000000e+00	5.520078e-02	7.434580e+00	
83	7.316022e-01	9.000000e+00	5.392575e-02	7.436633e+00	
84	7.416022e-01	9.000000e+00	5.527723e-02	7.438117e+00	
85	7.516022e-01	9.000000e+00	5.399087e-02	7.440019e+00	
86	7.616022e-01	9.000000e+00	5.534073e-02	7.441363e+00	
87	7.716022e-01	9.000000e+00	5.404520e-02	7.443137e+00	
88	7.816022e-01	9.000000e+00	5.539390e-02	7.444361e+00	
89	7.916022e-01	9.000000e+00	5.409088e-02	7.446024e+00	
90	8.016022e-01	9.000000e+00	5.543873e-02	7.447146e+00	
91	8.116022e-01	9.000000e+00	5.412952e-02	7.448712e+00	
92	8.216022e-01	9.000000e+00	5.547673e-02	7.449743e+00	
93	8.316022e-01	9.000000e+00	5.416237e-02	7.451225e+00	
94	8.416022e-01	9.000000e+00	5.550909e-02	7.452177e+00	
95	8.516022e-01	9.000000e+00	5.419041e-02	7.453584e+00	
96	8.616022e-01	9.000000e+00	5.553673e-02	7.454465e+00	
97	8.716022e-01	9.000000e+00	5.421443e-02	7.455805e+00	
98	8.816022e-01	9.000000e+00	5.556040e-02	7.456624e+00	
99	8.916022e-01	9.000000e+00	5.423505e-02	7.457905e+00	
100	9.016022e-01	9.000000e+00	5.558071e-02	7.458667e+00	
101	9.116022e-01	9.000000e+00	5.425277e-02	7.459894e+00	
102	9.216022e-01	9.000000e+00	5.559814e-02	7.460605e+00	
103	9.316022e-01	9.000000e+00	5.426801e-02	7.461784e+00	
104	9.416022e-01	9.000000e+00	5.561310e-02	7.462449e+00	
105	9.516022e-01	9.000000e+00	5.428111e-02	7.463584e+00	
106	9.616022e-01	9.000000e+00	5.562592e-02	7.464207e+00	
107	9.716022e-01	9.000000e+00	5.429236e-02	7.465302e+00	
108	9.816022e-01	9.000000e+00	5.563688e-02	7.465887e+00	
109	9.916022e-01	9.000000e+00	5.430201e-02	7.466945e+00	
110	1.001602e+00	9.000000e+00	5.564623e-02	7.467495e+00	
111	1.011602e+00	9.000000e+00	5.431024e-02	7.468519e+00	
112	1.021602e+00	9.000000e+00	5.565416e-02	7.469036e+00	

Index   time            in              led1            led2            
--------------------------------------------------------------------------------
113	1.031602e+00	9.000000e+00	5.431724e-02	7.470029e+00	
114	1.041602e+00	9.000000e+00	5.566083e-02	7.470516e+00	
115	1.051602e+00	9.000000e+00	5.432315e-02	7.471480e+00	
116	1.061602e+00	9.000000e+00	5.566641e-02	7.471940e+00	
117	1.071602e+00	9.000000e+00	5.432810e-02	7.472877e+00	
118	1.081602e+00	9.000000e+00	5.567100e-02	7.473312e+00	
119	1.091602e+00	9.000000e+00	5.433220e-02	7.474224e+00	
120	1.101602e+00	9.000000e+00	5.567473e-02	7.474634e+00	
121	1.111602e+00	9.000000e+00	5.433555e-02	7.475523e+00	
122	1.121602e+00	9.000000e+00	5.567769e-02	7.475911e+00	
123	1.131602e+00	9.000000e+00	5.433821e-02	7.476779e+00	
124	1.141602e+00	9.000000e+00	5.567996e-02	7.477146e+00	
125	1.151602e+00	9.000000e+00	5.434028e-02	7.477993e+00	
126	1.161602e+00	9.000000e+00	5.568161e-02	7.478341e+00	
127	1.171602e+00	9.000000e+00	5.434181e-02	7.479169e+00	
128	1.181602e+00	9.000000e+00	5.568271e-02	7.479498e+00	
129	1.191602e+00	9.000000e+00	5.434286e-02	7.480308e+00	
130	1.201602e+00	9.000000e+00	5.568332e-02	7.480620e+00	
131	1.211602e+00	9.000000e+00	5.434348e-02	7.481414e+00	
132	1.221602e+00	9.000000e+00	5.568349e-02	7.481709e+00	
133	1.231602e+00	9.000000e+00	5.434379e-02	7.482487e+00	
134	1.241602e+00	9.000000e+00	5.568420e-02	7.482766e+00	
135	1.251602e+00	9.000000e+00	5.435171e-02	7.483518e+00	
136	1.261602e+00	9.000000e+00	5.576760e-02	7.483688e+00	
137	1.271602e+00	9.000000e+00	5.506408e-02	7.483575e+00	
138	1.272852e+00	9.000000e+00	5.599937e-02	7.483237e+00	
139	1.275352e+00	9.000000e+00	5.684831e-02	7.482576e+00	
140	1.279307e+00	9.000000e+00	6.060982e-02	7.479742e+00	
141	1.279853e+00	9.000000e+00	6.177417e-02	7.479018e+00	
142	1.280945e+00	9.000000e+00	6.623928e-02	7.477026e+00	
143	1.281218e+00	9.000000e+00	6.913368e-02	7.476186e+00	
144	1.281764e+00	9.000000e+00	3.803201e-01	1.041021e-02	
145	1.282049e+00	9.000000e+00	4.672128e-01	1.034303e-02	
146	1.282326e+00	9.000000e+00	5.503515e-01	1.034741e-02	
147	1.282705e+00	9.000000e+00	6.627384e-01	1.027066e-02	
148	1.283463e+00	9.000000e+00	8.813415e-01	1.023091e-02	
149	1.284978e+00	9.000000e+00	1.297446e+00	1.006118e-02	
150	1.288009e+00	9.000000e+00	2.049474e+00	9.921599e-03	
151	1.294072e+00	9.000000e+00	3.283783e+00	9.799135e-03	
152	1.304072e+00	9.000000e+00	4.720791e+00	1.060291e-02	
153	1.314072e+00	9.000000e+00	5.634748e+00	1.209873e-02	
154	1.324072e+00	9.000000e+00	6.217150e+00	1.502801e-02	
155	1.334072e+00	9.000000e+00	6.592784e+00	1.790962e-02	
156	1.344072e+00	9.000000e+00	6.834833e+00	2.311852e-02	
157	1.354072e+00	9.000000e+00	6.996276e+00	2.603947e-02	
158	1.364072e+00	9.000000e+00	7.101870e+00	3.322458e-02	
159	1.374072e+00	9.000000e+00	7.177038e+00	3.400535e-02	
160	1.384072e+00	9.000000e+00	7.226692e+00	4.249129e-02	
161	1.394072e+00	9.000000e+00	7.265896e+00	3.983638e-02	
162	1.404072e+00	9.000000e+00	7.291545e+00	4.918436e-02	
163	1.414072e+00	9.000000e+00	7.314816e+00	4.341577e-02	
164	1.424072e+00	9.000000e+00	7.329385e+00	5.344147e-02	
165	1.434072e+00	9.000000e+00	7.344968e+00	4.552769e-02	
166	1.444072e+00	9.000000e+00	7.353925e+00	5.606486e-02	
167	1.454072e+00	9.000000e+00	7.365419e+00	4.677352e-02	
168	1.464072e+00	9.000000e+00	7.371246e+00	5.771808e-02	
169	1.474072e+00	9.000000e+00	7.380356e+00	4.755145e-02	
170	1.484072e+00	9.000000e+00	7.384280e+00	5.880453e-02	

Index   time            in              led1            led2            
--------------------------------------------------------------------------------
171	1.494072e+00	9.000000e+00	7.391885e+00	4.806361e-02	
172	1.504072e+00	9.000000e+00	7.394566e+00	5.955051e-02	
173	1.514072e+00	9.000000e+00	7.401159e+00	4.841728e-02	
174	1.524072e+00	9.000000e+00	7.402981e+00	6.008325e-02	
175	1.534072e+00	9.000000e+00	7.408857e+00	4.867154e-02	
176	1.544072e+00	9.000000e+00	7.410057e+00	6.047662e-02	
177	1.554072e+00	9.000000e+00	7.415403e+00	4.886052e-02	
178	1.564072e+00	9.000000e+00	7.416136e+00	6.077525e-02	
179	1.574072e+00	9.000000e+00	7.421079e+00	4.900489e-02	
180	1.584072e+00	9.000000e+00	7.421450e+00	6.100724e-02	
181	1.594072e+00	9.000000e+00	7.426075e+00	4.911769e-02	
182	1.604072e+00	9.000000e+00	7.426159e+00	6.119091e-02	
183	1.614072e+00	9.000000e+00	7.430529e+00	4.920750e-02	
184	1.624072e+00	9.000000e+00	7.430380e+00	6.133863e-02	
185	1.634072e+00	9.000000e+00	7.434542e+00	4.928012e-02	
186	1.644072e+00	9.000000e+00	7.434201e+00	6.145900e-02	
187	1.654072e+00	9.000000e+00	7.438189e+00	4.933963e-02	
188	1.664072e+00	9.000000e+00	7.437688e+00	6.155815e-02	
189	1.674072e+00	9.000000e+00	7.441530e+00	4.938892e-02	
190	1.684072e+00	9.000000e+00	7.440892e+00	6.164056e-02	
191	1.694072e+00	9.000000e+00	7.444608e+00	4.943013e-02	
192	1.704072e+00	9.000000e+00	7.443854e+00	6.170955e-02	
193	1.714072e+00	9.000000e+00	7.447462e+00	4.946485e-02	
194	1.724072e+00	9.000000e+00	7.446606e+00	6.176766e-02	
195	1.734072e+00	9.000000e+00	7.450120e+00	4.949431e-02	
196	1.744072e+00	9.000000e+00	7.449176e+00	6.181682e-02	
197	1.754072e+00	9.000000e+00	7.452607e+00	4.951943e-02	
198	1.764072e+00	9.000000e+00	7.451585e+00	6.185856e-02	
199	1.774072e+00	9.000000e+00	7.454943e+00	4.954096e-02	
200	1.784072e+00	9.000000e+00	7.453852e+00	6.189409e-02	
201	1.794072e+00	9.000000e+00	7.457144e+00	4.955948e-02	
202	1.804072e+00	9.000000e+00	7.455991e+00	6.192437e-02	
203	1.814072e+00	9.000000e+00	7.459225e+00	4.957546e-02	
204	1.824072e+00	9.000000e+00	7.458017e+00	6.195018e-02	
205	1.834072e+00	9.000000e+00	7.461198e+00	4.958928e-02	
206	1.844072e+00	9.000000e+00	7.459940e+00	6.197217e-02	
207	1.854072e+00	9.000000e+00	7.463073e+00	4.960126e-02	
208	1.864072e+00	9.000000e+00	7.461770e+00	6.199085e-02	
209	1.874072e+00	9.000000e+00	7.464859e+00	4.961164e-02	
210	1.884072e+00	9.000000e+00	7.463515e+00	6.200668e-02	
211	1.894072e+00	9.000000e+00	7.466564e+00	4.962066e-02	
212	1.904072e+00	9.000000e+00	7.465183e+00	6.202001e-02	
213	1.914072e+00	9.000000e+00	7.468196e+00	4.962848e-02	
214	1.924072e+00	9.000000e+00	7.466780e+00	6.203117e-02	
215	1.934072e+00	9.000000e+00	7.469759e+00	4.963526e-02	
216	1.944072e+00	9.000000e+00	7.468311e+00	6.204040e-02	
217	1.954072e+00	9.000000e+00	7.471259e+00	4.964112e-02	
218	1.964072e+00	9.000000e+00	7.469783e+00	6.204794e-02	
219	1.974072e+00	9.000000e+00	7.472701e+00	4.964619e-02	
220	1.984072e+00	9.000000e+00	7.471198e+00	6.205399e-02	
221	1.994072e+00	9.000000e+00	7.474090e+00	4.965056e-02	
222	2.004072e+00	9.000000e+00	7.472562e+00	6.205870e-02	
223	2.014072e+00	9.000000e+00	7.475428e+00	4.965430e-02	
224	2.024072e+00	9.000000e+00	7.473877e+00	6.206222e-02	
225	2.034072e+00	9.000000e+00	7.476720e+00	4.965749e-02	
226	2.044072e+00	9.000000e+00	7.475147e+00	6.206469e-02	
227	2.054072e+00	9.000000e+00	7.477969e+00	4.966020e-02	
228	2.064072e+00	9.000000e+00	7.476376e+00	6.206620e-02	

Index   time            in              led1            led2            
--------------------------------------------------------------------------------
229	2.074072e+00	9.000000e+00	7.479176e+00	4.966247e-02	
230	2.084072e+00	9.000000e+00	7.477565e+00	6.206687e-02	
231	2.094072e+00	9.000000e+00	7.480346e+00	4.966435e-02	
232	2.104072e+00	9.000000e+00	7.478717e+00	6.206676e-02	
233	2.114072e+00	9.000000e+00	7.481479e+00	4.966589e-02	
234	2.124072e+00	9.000000e+00	7.479834e+00	6.206597e-02	
235	2.134072e+00	9.000000e+00	7.482579e+00	4.966712e-02	
236	2.144072e+00	9.000000e+00	7.480918e+00	6.206455e-02	
237	2.154072e+00	9.000000e+00	7.483647e+00	4.966810e-02	
238	2.164072e+00	9.000000e+00	7.481971e+00	6.206312e-02	
239	2.174072e+00	9.000000e+00	7.484681e+00	4.967063e-02	
240	2.184072e+00	9.000000e+00	7.482950e+00	6.210971e-02	
241	2.194072e+00	9.000000e+00	7.485393e+00	4.982830e-02	
242	2.204072e+00	9.000000e+00	7.479272e+00	6.816316e-02	
243	2.214072e+00	9.000000e+00	1.003885e-02	1.556729e+00	
244	2.222111e+00	9.000000e+00	9.792884e-03	3.282629e+00	
245	2.229675e+00	9.000000e+00	1.032825e-02	4.420495e+00	
246	2.238577e+00	9.000000e+00	1.140319e-02	5.349847e+00	
247	2.248577e+00	9.000000e+00	1.394739e-02	6.034932e+00	
248	2.258577e+00	9.000000e+00	1.659621e-02	6.475417e+00	
249	2.268577e+00	9.000000e+00	2.145000e-02	6.758247e+00	
250	2.278577e+00	9.000000e+00	2.446234e-02	6.945592e+00	
251	2.288577e+00	9.000000e+00	3.142872e-02	7.067667e+00	
252	2.298577e+00	9.000000e+00	3.262304e-02	7.153459e+00	
253	2.308577e+00	9.000000e+00	4.104681e-02	7.209929e+00	
254	2.318577e+00	9.000000e+00	3.886405e-02	7.253732e+00	
255	2.328577e+00	9.000000e+00	4.833068e-02	7.282335e+00	
256	2.338577e+00	9.000000e+00	4.277442e-02	7.307779e+00	
257	2.348577e+00	9.000000e+00	5.301769e-02	7.323712e+00	
258	2.358577e+00	9.000000e+00	4.508361e-02	7.340447e+00	
259	2.368577e+00	9.000000e+00	5.591168e-02	7.350074e+00	
260	2.378577e+00	9.000000e+00	4.643576e-02	7.362258e+00	
261	2.388577e+00	9.000000e+00	5.772573e-02	7.368428e+00	
262	2.398577e+00	9.000000e+00	4.727114e-02	7.378000e+00	
263	2.408577e+00	9.000000e+00	5.890904e-02	7.382097e+00	
264	2.418577e+00	9.000000e+00	4.781551e-02	7.390043e+00	
265	2.428577e+00	9.000000e+00	5.971564e-02	7.392804e+00	
266	2.438577e+00	9.000000e+00	4.818805e-02	7.399666e+00	
267	2.448577e+00	9.000000e+00	6.028803e-02	7.401511e+00	
268	2.458577e+00	9.000000e+00	4.845387e-02	7.407614e+00	
269	2.468577e+00	9.000000e+00	6.070841e-02	7.408801e+00	
270	2.478577e+00	9.000000e+00	4.865021e-02	7.414346e+00	
271	2.488577e+00	9.000000e+00	6.102614e-02	7.415041e+00	
272	2.498577e+00	9.000000e+00	4.879942e-02	7.420163e+00	
273	2.508577e+00	9.000000e+00	6.127206e-02	7.420480e+00	
274	2.518577e+00	9.000000e+00	4.891551e-02	7.425271e+00	
275	2.528577e+00	9.000000e+00	6.146618e-02	7.425289e+00	
276	2.538577e+00	9.000000e+00	4.900760e-02	7.429815e+00	
277	2.548577e+00	9.000000e+00	6.162191e-02	7.429592e+00	
278	2.558577e+00	9.000000e+00	4.908184e-02	7.433902e+00	
279	2.568577e+00	9.000000e+00	6.174854e-02	7.433480e+00	
280	2.578577e+00	9.000000e+00	4.914252e-02	7.437612e+00	
281	2.588577e+00	9.000000e+00	6.185268e-02	7.437023e+00	
282	2.598577e+00	9.000000e+00	4.919268e-02	7.441004e+00	
283	2.608577e+00	9.000000e+00	6.193911e-02	7.440275e+00	
284	2.618577e+00	9.000000e+00	4.923454e-02	7.444127e+00	
285	2.628577e+00	9.000000e+00	6.201138e-02	7.443279e+00	
286	2.638577e+00	9.000000e+00	4.926977e-02	7.447020e+00	

Index   time            in              led1            led2            
--------------------------------------------------------------------------------
287	2.648577e+00	9.000000e+00	6.207220e-02	7.446067e+00	
288	2.658577e+00	9.000000e+00	4.929961e-02	7.449712e+00	
289	2.668577e+00	9.000000e+00	6.212362e-02	7.448668e+00	
290	2.678577e+00	9.000000e+00	4.932504e-02	7.452228e+00	
291	2.688577e+00	9.000000e+00	6.216726e-02	7.451105e+00	
292	2.698577e+00	9.000000e+00	4.934682e-02	7.454590e+00	
293	2.708577e+00	9.000000e+00	6.226603e-02	7.453397e+00	
294	2.718577e+00	9.000000e+00	4.936500e-02	7.456815e+00	
295	2.728577e+00	9.000000e+00	6.229807e-02	7.455558e+00	
296	2.738577e+00	9.000000e+00	4.938114e-02	7.458916e+00	
297	2.748577e+00	9.000000e+00	6.232538e-02	7.457604e+00	
298	2.758577e+00	9.000000e+00	4.939510e-02	7.460908e+00	
299	2.768577e+00	9.000000e+00	6.234863e-02	7.459545e+00	
300	2.778577e+00	9.000000e+00	4.940720e-02	7.462800e+00	
301	2.788577e+00	9.000000e+00	6.236840e-02	7.461391e+00	
302	2.798577e+00	9.000000e+00	4.941770e-02	7.464602e+00	
303	2.808577e+00	9.000000e+00	6.238514e-02	7.463151e+00	
304	2.818577e+00	9.000000e+00	4.942681e-02	7.466321e+00	
305	2.828577e+00	9.000000e+00	6.239926e-02	7.464832e+00	
306	2.838577e+00	9.000000e+00	4.943472e-02	7.467966e+00	
307	2.848577e+00	9.000000e+00	6.241107e-02	7.466442e+00	
308	2.858577e+00	9.000000e+00	4.944159e-02	7.469541e+00	
309	2.868577e+00	9.000000e+00	6.242085e-02	7.467985e+00	
310	2.878577e+00	9.000000e+00	4.944755e-02	7.471052e+00	
311	2.888577e+00	9.000000e+00	6.242885e-02	7.469467e+00	
312	2.898577e+00	9.000000e+00	4.945270e-02	7.472504e+00	
313	2.908577e+00	9.000000e+00	6.243528e-02	7.470892e+00	
314	2.918577e+00	9.000000e+00	4.945715e-02	7.473902e+00	
315	2.928577e+00	9.000000e+00	6.244030e-02	7.472265e+00	
316	2.938577e+00	9.000000e+00	4.946098e-02	7.475250e+00	
317	2.948577e+00	9.000000e+00	6.244406e-02	7.473589e+00	
318	2.958577e+00	9.000000e+00	4.946425e-02	7.476550e+00	
319	2.968577e+00	9.000000e+00	6.244672e-02	7.474867e+00	
320	2.978577e+00	9.000000e+00	4.946704e-02	7.477806e+00	
321	2.988577e+00	9.000000e+00	6.244837e-02	7.476103e+00	
322	2.998577e+00	9.000000e+00	4.946939e-02	7.479021e+00	
323	3.008577e+00	9.000000e+00	6.244912e-02	7.477299e+00	
324	3.018577e+00	9.000000e+00	4.947136e-02	7.480197e+00	
325	3.028577e+00	9.000000e+00	6.244907e-02	7.478457e+00	
326	3.038577e+00	9.000000e+00	4.947298e-02	7.481337e+00	
327	3.048577e+00	9.000000e+00	6.244828e-02	7.479580e+00	
328	3.058577e+00	9.000000e+00	4.947430e-02	7.482443e+00	
329	3.068577e+00	9.000000e+00	6.244685e-02	7.480670e+00	
330	3.078577e+00	9.000000e+00	4.947535e-02	7.483516e+00	
331	3.088577e+00	9.000000e+00	6.244514e-02	7.481729e+00	
